
T2184 000:504 SEGGER J-Link V4.98e Log File (0001ms, 0277ms total)
T2184 000:504 DLL Compiled: May  5 2015 11:00:52 (0001ms, 0277ms total)
T2184 000:504 Logging started @ 2019-01-25 09:01 (0001ms, 0277ms total)
T2184 000:505 JLINK_SetWarnOutHandler(...) (0000ms, 0277ms total)
T2184 000:505 JLINK_OpenEx(...)
Firmware: J-Link ARM-OB STM32 compiled Aug 22 2012 19:52:04
Hardware: V7.00
S/N: 20090928
Feature(s): RDI,FlashDL,FlashBP,JFlash,GDBFull  returns O.K. (0276ms, 0553ms total)
T2184 000:781 JLINK_SetErrorOutHandler(...) (0000ms, 0553ms total)
T2184 000:781 JLINK_ExecCommand("ProjectFile = "C:\Users\asus\Desktop\易煞婀ぷ骰阕\一月\NCU-RoboMaster\yaw_fdb_encoder\MDK-ARM\JLinkSettings.ini"", ...)Device "STM32F427II" selected.  returns 0x00 (0011ms, 0564ms total)
T2184 000:821 JLINK_ExecCommand("Device = STM32F427II", ...)Device "STM32F427II" selected.  returns 0x00 (0059ms, 0623ms total)
T2184 000:880 JLINK_ExecCommand("DisableConnectionTimeout", ...)  returns 0x01 (0000ms, 0623ms total)
T2184 000:880 JLINK_GetHardwareVersion()  returns 0x11170 (0000ms, 0623ms total)
T2184 000:880 JLINK_GetDLLVersion()  returns 49805 (0000ms, 0623ms total)
T2184 000:880 JLINK_GetFirmwareString(...) (0000ms, 0623ms total)
T2184 000:947 JLINK_GetDLLVersion()  returns 49805 (0000ms, 0623ms total)
T2184 000:947 JLINK_GetCompileDateTime() (0000ms, 0623ms total)
T2184 000:963 JLINK_GetFirmwareString(...) (0000ms, 0623ms total)
T2184 000:980 JLINK_GetHardwareVersion()  returns 0x11170 (0000ms, 0623ms total)
T2184 001:032 JLINK_TIF_Select(JLINKARM_TIF_SWD)  returns 0x00 (0001ms, 0624ms total)
T2184 001:033 JLINK_SetSpeed(5000) (0000ms, 0624ms total)
T2184 001:033 JLINK_GetId() >0x108 TIF>Found SWD-DP with ID 0x2BA01477 >0x0D TIF> >0x28 TIF> >0x0D TIF> >0x28 TIF> >0x0D TIF> >0x21 TIF> >0x0D TIF> >0x28 TIF> >0x0D TIF> >0x28 TIF> >0x0D TIF> >0x28 TIF> >0x0D TIF> >0x21 TIF> >0x0D TIF> >0x21 TIF> >0x0D TIF> >0x28 TIF> >0x0D TIF> >0x21 TIF> >0x0D TIF> >0x21 TIF> >0x0D TIF> >0x28 TIF> >0x0D TIF> >0x28 TIF> >0x0D TIF> >0x28 TIF> >0x0D TIF> >0x21 TIF> >0x0D TIF> >0x21 TIF> >0x0D TIF> >0x28 TIF> >0x0D TIF> >0x28 TIF> >0x108 TIF>Found SWD-DP with ID 0x2BA01477
 >0x0D TIF> >0x21 TIF> >0x0D TIF> >0x28 TIF> >0x0D TIF> >0x28 TIF> >0x0D TIF> >0x21 TIF> >0x0D TIF> >0x28 TIF> >0x0D TIF> >0x21 TIF> >0x0D TIF> >0x21 TIF> >0x0D TIF> >0x21 TIF> >0x0D TIF> >0x21 TIF> >0x0D TIF> >0x28 TIF> >0x0D TIF> >0x28 TIF> >0x0D TIF> >0x21 TIF> >0x0D TIF> >0x28 TIF> >0x0D TIF> >0x28 TIF> >0x0D TIF> >0x28 TIF> >0x0D TIF> >0x21 TIF> >0x0D TIF> >0x21 TIF> >0x0D TIF> >0x28 TIF> >0x0D TIF> >0x21 TIF> >0x0D TIF> >0x21 TIF>Found Cortex-M4 r0p1, Little endian.
 -- CPU_WriteMem(4 bytes @ 0xE0002000) -- CPU_ReadMem(4 bytes @ 0xE000EDF0) -- CPU_WriteMem(4 bytes @ 0xE000EDF0) -- CPU_ReadMem(4 bytes @ 0xE0002000)FPUnit: 6 code (BP) slots and 2 literal slots -- CPU_ReadMem(4 bytes @ 0xE000EDFC) -- CPU_WriteMem(4 bytes @ 0xE000EDFC) -- CPU_ReadMem(4 bytes @ 0xE0001000) -- CPU_WriteMem(4 bytes @ 0xE0001000) -- CPU_ReadMem(4 bytes @ 0xE000ED88) -- CPU_WriteMem(4 bytes @ 0xE000ED88) -- CPU_ReadMem(4 bytes @ 0xE000ED88) -- CPU_WriteMem(4 bytes @ 0xE000ED88)
CoreSight components:ROMTbl 0 @ E00FF000 -- CPU_ReadMem(16 bytes @ 0xE00FF000) -- CPU_ReadMem(16 bytes @ 0xE000EFF0) -- CPU_ReadMem(16 bytes @ 0xE000EFE0)ROMTbl 0 [0]: FFF0F000, CID: B105E00D, PID: 000BB00C SCS -- CPU_ReadMem(16 bytes @ 0xE0001FF0) -- CPU_ReadMem(16 bytes @ 0xE0001FE0)ROMTbl 0 [1]: FFF02000, CID: B105E00D, PID: 003BB002 DWT -- CPU_ReadMem(16 bytes @ 0xE0002FF0) -- CPU_ReadMem(16 bytes @ 0xE0002FE0)ROMTbl 0 [2]: FFF03000, CID: B105E00D, PID: 002BB003 FPB
 -- CPU_ReadMem(16 bytes @ 0xE0000FF0) -- CPU_ReadMem(16 bytes @ 0xE0000FE0)ROMTbl 0 [3]: FFF01000, CID: B105E00D, PID: 003BB001 ITM -- CPU_ReadMem(16 bytes @ 0xE00FF010) -- CPU_ReadMem(16 bytes @ 0xE0040FF0) -- CPU_ReadMem(16 bytes @ 0xE0040FE0)ROMTbl 0 [4]: FFF41000, CID: B105900D, PID: 000BB9A1 TPIU -- CPU_ReadMem(16 bytes @ 0xE0041FF0) -- CPU_ReadMem(16 bytes @ 0xE0041FE0)ROMTbl 0 [5]: FFF42000, CID: B105900D, PID: 000BB925 ETM >0x0D TIF> >0x21 TIF>  returns 0x2BA01477 (0191ms, 0815ms total)
T2184 001:224 JLINK_GetDLLVersion()  returns 49805 (0000ms, 0815ms total)
T2184 001:224 JLINK_CORE_GetFound()  returns 0xE0000FF (0000ms, 0815ms total)
T2184 001:224 JLINK_GetDebugInfo(0x100) -- Value=0xE00FF003  returns 0x00 (0000ms, 0815ms total)
T2184 001:238 JLINK_ReadMem (0xE00FF000, 0x0020 Bytes, ...) -- CPU is running -- CPU_ReadMem(32 bytes @ 0xE00FF000) - Data: 03 F0 F0 FF 03 20 F0 FF 03 30 F0 FF 03 10 F0 FF ...  returns 0x00 (0001ms, 0816ms total)
T2184 001:239 JLINK_ReadMem (0xE000EFF0, 0x0010 Bytes, ...) -- CPU is running -- CPU_ReadMem(16 bytes @ 0xE000EFF0) - Data: 0D 00 00 00 E0 00 00 00 05 00 00 00 B1 00 00 00  returns 0x00 (0001ms, 0817ms total)
T2184 001:240 JLINK_ReadMem (0xE000EFD0, 0x0020 Bytes, ...) -- CPU is running -- CPU_ReadMem(32 bytes @ 0xE000EFD0) - Data: 04 00 00 00 00 00 00 00 00 00 00 00 00 00 00 00 ...  returns 0x00 (0001ms, 0818ms total)
T2184 001:241 JLINK_ReadMem (0xE0001FF0, 0x0010 Bytes, ...) -- CPU is running -- CPU_ReadMem(16 bytes @ 0xE0001FF0) - Data: 0D 00 00 00 E0 00 00 00 05 00 00 00 B1 00 00 00  returns 0x00 (0000ms, 0818ms total)
T2184 001:241 JLINK_ReadMem (0xE0001FD0, 0x0020 Bytes, ...) -- CPU is running -- CPU_ReadMem(32 bytes @ 0xE0001FD0) - Data: 04 00 00 00 00 00 00 00 00 00 00 00 00 00 00 00 ...  returns 0x00 (0001ms, 0819ms total)
T2184 001:242 JLINK_ReadMem (0xE0002FF0, 0x0010 Bytes, ...) -- CPU is running -- CPU_ReadMem(16 bytes @ 0xE0002FF0) - Data: 0D 00 00 00 E0 00 00 00 05 00 00 00 B1 00 00 00  returns 0x00 (0001ms, 0820ms total)
T2184 001:243 JLINK_ReadMem (0xE0002FD0, 0x0020 Bytes, ...) -- CPU is running -- CPU_ReadMem(32 bytes @ 0xE0002FD0) - Data: 04 00 00 00 00 00 00 00 00 00 00 00 00 00 00 00 ...  returns 0x00 (0000ms, 0820ms total)
T2184 001:243 JLINK_ReadMem (0xE0000FF0, 0x0010 Bytes, ...) -- CPU is running -- CPU_ReadMem(16 bytes @ 0xE0000FF0) - Data: 0D 00 00 00 E0 00 00 00 05 00 00 00 B1 00 00 00  returns 0x00 (0001ms, 0821ms total)
T2184 001:244 JLINK_ReadMem (0xE0000FD0, 0x0020 Bytes, ...) -- CPU is running -- CPU_ReadMem(32 bytes @ 0xE0000FD0) - Data: 04 00 00 00 00 00 00 00 00 00 00 00 00 00 00 00 ...  returns 0x00 (0001ms, 0822ms total)
T2184 001:245 JLINK_ReadMem (0xE0040FF0, 0x0010 Bytes, ...) -- CPU is running -- CPU_ReadMem(16 bytes @ 0xE0040FF0) - Data: 0D 00 00 00 90 00 00 00 05 00 00 00 B1 00 00 00  returns 0x00 (0001ms, 0823ms total)
T2184 001:246 JLINK_ReadMem (0xE0040FD0, 0x0020 Bytes, ...) -- CPU is running -- CPU_ReadMem(32 bytes @ 0xE0040FD0) - Data: 04 00 00 00 00 00 00 00 00 00 00 00 00 00 00 00 ...  returns 0x00 (0000ms, 0823ms total)
T2184 001:246 JLINK_ReadMem (0xE0041FF0, 0x0010 Bytes, ...) -- CPU is running -- CPU_ReadMem(16 bytes @ 0xE0041FF0) - Data: 0D 00 00 00 90 00 00 00 05 00 00 00 B1 00 00 00  returns 0x00 (0001ms, 0824ms total)
T2184 001:247 JLINK_ReadMem (0xE0041FD0, 0x0020 Bytes, ...) -- CPU is running -- CPU_ReadMem(32 bytes @ 0xE0041FD0) - Data: 04 00 00 00 00 00 00 00 00 00 00 00 00 00 00 00 ...  returns 0x00 (0001ms, 0825ms total)
T2184 001:248 JLINK_ReadMemU32(0xE000EF40, 0x0001 Items, ...) -- CPU is running -- CPU_ReadMem(4 bytes @ 0xE000EF40) - Data: 21 00 11 10  returns 0x01 (0000ms, 0825ms total)
T2184 001:248 JLINK_ReadMemU32(0xE000EF44, 0x0001 Items, ...) -- CPU is running -- CPU_ReadMem(4 bytes @ 0xE000EF44) - Data: 11 00 00 11  returns 0x01 (0001ms, 0826ms total)
T2184 001:249 JLINK_ReadMemU32(0xE000ED00, 0x0001 Items, ...) -- CPU is running -- CPU_ReadMem(4 bytes @ 0xE000ED00) - Data: 41 C2 0F 41  returns 0x01 (0000ms, 0826ms total)
T2184 001:249 JLINK_SetResetType(JLINKARM_RESET_TYPE_NORMAL)  returns JLINKARM_RESET_TYPE_NORMAL (0001ms, 0827ms total)
T2184 001:250 JLINK_Reset() -- CPU is running -- CPU_WriteMem(4 bytes @ 0xE000EDF0) -- CPU is running -- CPU_WriteMem(4 bytes @ 0xE000EDFC) >0x35 TIF> -- CPU is running -- CPU_WriteMem(4 bytes @ 0xE000ED0C) -- CPU is running -- CPU_ReadMem(4 bytes @ 0xE000EDF0) -- CPU is running -- CPU_ReadMem(4 bytes @ 0xE000EDF0) -- CPU is running -- CPU_WriteMem(4 bytes @ 0xE000EDF0) -- CPU is running -- CPU_WriteMem(4 bytes @ 0xE000EDFC) -- CPU is running -- CPU_ReadMem(4 bytes @ 0xE000EDF0)
 -- CPU_WriteMem(4 bytes @ 0xE0002000) -- CPU_ReadMem(4 bytes @ 0xE000EDFC) -- CPU_ReadMem(4 bytes @ 0xE0001000) (0019ms, 0846ms total)
T2184 001:269 JLINK_Halt()  returns 0x00 (0000ms, 0846ms total)
T2184 001:269 JLINK_IsHalted()  returns TRUE (0000ms, 0846ms total)
T2184 001:269 JLINK_ReadMemU32(0xE000EDF0, 0x0001 Items, ...) -- CPU_ReadMem(4 bytes @ 0xE000EDF0) - Data: 03 00 03 00  returns 0x01 (0000ms, 0846ms total)
T2184 001:269 JLINK_WriteU32(0xE000EDF0, 0xA05F0003) -- CPU_WriteMem(4 bytes @ 0xE000EDF0)  returns 0x00 (0001ms, 0847ms total)
T2184 001:270 JLINK_WriteU32(0xE000EDFC, 0x01000000) -- CPU_WriteMem(4 bytes @ 0xE000EDFC)  returns 0x00 (0000ms, 0847ms total)
T2184 001:317 JLINK_GetHWStatus(...)  returns 0x00 (0001ms, 0848ms total)
T2184 001:354 JLINK_GetNumBPUnits(Type = 0xFFFFFF00)  returns 0x06 (0000ms, 0848ms total)
T2184 001:355 JLINK_GetNumBPUnits(Type = 0xF0)  returns 0x2000 (0000ms, 0848ms total)
T2184 001:355 JLINK_GetNumWPUnits()  returns 0x04 (0000ms, 0848ms total)
T2184 001:388 JLINK_GetSpeed()  returns 0xFA0 (0000ms, 0848ms total)
T2184 001:413 JLINK_ReadMemU32(0xE000E004, 0x0001 Items, ...) -- CPU_ReadMem(4 bytes @ 0xE000E004) - Data: 02 00 00 00  returns 0x01 (0000ms, 0848ms total)
T2184 001:413 JLINK_ReadMemU32(0xE000E004, 0x0001 Items, ...) -- CPU_ReadMem(4 bytes @ 0xE000E004) - Data: 02 00 00 00  returns 0x01 (0001ms, 0849ms total)
T2184 001:414 JLINK_WriteMem(0xE0001000, 0x001C Bytes, ...) - Data: 01 00 00 00 00 00 00 00 00 00 00 00 00 00 00 00 ... -- CPU_WriteMem(28 bytes @ 0xE0001000)  returns 0x1C (0001ms, 0850ms total)
T2184 001:415 JLINK_ReadMem (0xE0001000, 0x001C Bytes, ...) -- CPU_ReadMem(28 bytes @ 0xE0001000) - Data: 01 00 00 40 00 00 00 00 00 00 00 00 00 00 00 00 ...  returns 0x00 (0001ms, 0851ms total)
T2184 001:416 JLINK_Halt()  returns 0x00 (0000ms, 0851ms total)
T2184 001:416 JLINK_IsHalted()  returns TRUE (0000ms, 0851ms total)
T2184 001:426 JLINK_WriteMem(0x20000000, 0x0198 Bytes, ...) - Data: 00 BE 0A E0 0D 78 2D 06 68 40 08 24 40 00 00 D3 ... -- CPU_WriteMem(408 bytes @ 0x20000000)  returns 0x198 (0006ms, 0857ms total)
T2184 001:432 JLINK_WriteReg(R0, 0x08000000)  returns 0x00 (0000ms, 0857ms total)
T2184 001:432 JLINK_WriteReg(R1, 0x00B71B00)  returns 0x00 (0000ms, 0857ms total)
T2184 001:432 JLINK_WriteReg(R2, 0x00000001)  returns 0x00 (0000ms, 0857ms total)
T2184 001:432 JLINK_WriteReg(R3, 0x00000000)  returns 0x00 (0000ms, 0857ms total)
T2184 001:432 JLINK_WriteReg(R4, 0x00000000)  returns 0x00 (0000ms, 0857ms total)
T2184 001:432 JLINK_WriteReg(R5, 0x00000000)  returns 0x00 (0000ms, 0857ms total)
T2184 001:432 JLINK_WriteReg(R6, 0x00000000)  returns 0x00 (0000ms, 0857ms total)
T2184 001:432 JLINK_WriteReg(R7, 0x00000000)  returns 0x00 (0000ms, 0857ms total)
T2184 001:432 JLINK_WriteReg(R8, 0x00000000)  returns 0x00 (0000ms, 0857ms total)
T2184 001:432 JLINK_WriteReg(R9, 0x20000194)  returns 0x00 (0000ms, 0857ms total)
T2184 001:432 JLINK_WriteReg(R10, 0x00000000)  returns 0x00 (0000ms, 0857ms total)
T2184 001:432 JLINK_WriteReg(R11, 0x00000000)  returns 0x00 (0000ms, 0857ms total)
T2184 001:432 JLINK_WriteReg(R12, 0x00000000)  returns 0x00 (0000ms, 0857ms total)
T2184 001:432 JLINK_WriteReg(R13 (SP), 0x20001000)  returns 0x00 (0000ms, 0857ms total)
T2184 001:432 JLINK_WriteReg(R14, 0x20000001)  returns 0x00 (0000ms, 0857ms total)
T2184 001:432 JLINK_WriteReg(R15 (PC), 0x2000005E)  returns 0x00 (0001ms, 0858ms total)
T2184 001:433 JLINK_WriteReg(XPSR, 0x01000000)  returns 0x00 (0000ms, 0858ms total)
T2184 001:433 JLINK_WriteReg(MSP, 0x20001000)  returns 0x00 (0000ms, 0858ms total)
T2184 001:433 JLINK_WriteReg(PSP, 0x20001000)  returns 0x00 (0000ms, 0858ms total)
T2184 001:433 JLINK_WriteReg(CFBP, 0x00000000)  returns 0x00 (0000ms, 0858ms total)
T2184 001:433 JLINK_SetBPEx(Addr = 0x20000000, Type = 0xFFFFFFF2) -- CPU_ReadMem(2 bytes @ 0x20000000)  returns 0x00000001 (0000ms, 0858ms total)
T2184 001:433 JLINK_Go() -- CPU_WriteMem(2 bytes @ 0x20000000) -- CPU_ReadMem(4 bytes @ 0xE0001000) -- CPU_WriteMem(4 bytes @ 0xE0002008) -- CPU_WriteMem(4 bytes @ 0xE000200C) -- CPU_WriteMem(4 bytes @ 0xE0002010) -- CPU_WriteMem(4 bytes @ 0xE0002014) -- CPU_WriteMem(4 bytes @ 0xE0002018) -- CPU_WriteMem(4 bytes @ 0xE000201C) -- CPU_WriteMem(4 bytes @ 0xE0001004) (0006ms, 0864ms total)
T2184 001:439 JLINK_IsHalted() -- CPU_ReadMem(2 bytes @ 0x20000000)  returns TRUE (0003ms, 0867ms total)
T2184 001:443 JLINK_ReadReg(R15 (PC))  returns 0x20000000 (0000ms, 0864ms total)
T2184 001:443 JLINK_ClrBPEx(BPHandle = 0x00000001)  returns 0x00 (0000ms, 0864ms total)
T2184 001:443 JLINK_ReadReg(R0)  returns 0x00000000 (0000ms, 0864ms total)
T2184 001:443 JLINK_WriteReg(R0, 0x08000000)  returns 0x00 (0000ms, 0864ms total)
T2184 001:443 JLINK_WriteReg(R1, 0x00004000)  returns 0x00 (0000ms, 0864ms total)
T2184 001:443 JLINK_WriteReg(R2, 0x000000FF)  returns 0x00 (0000ms, 0864ms total)
T2184 001:443 JLINK_WriteReg(R3, 0x00000000)  returns 0x00 (0000ms, 0864ms total)
T2184 001:443 JLINK_WriteReg(R4, 0x00000000)  returns 0x00 (0000ms, 0864ms total)
T2184 001:443 JLINK_WriteReg(R5, 0x00000000)  returns 0x00 (0000ms, 0864ms total)
T2184 001:444 JLINK_WriteReg(R6, 0x00000000)  returns 0x00 (0000ms, 0864ms total)
T2184 001:444 JLINK_WriteReg(R7, 0x00000000)  returns 0x00 (0000ms, 0864ms total)
T2184 001:444 JLINK_WriteReg(R8, 0x00000000)  returns 0x00 (0000ms, 0864ms total)
T2184 001:444 JLINK_WriteReg(R9, 0x20000194)  returns 0x00 (0000ms, 0864ms total)
T2184 001:444 JLINK_WriteReg(R10, 0x00000000)  returns 0x00 (0000ms, 0864ms total)
T2184 001:444 JLINK_WriteReg(R11, 0x00000000)  returns 0x00 (0000ms, 0864ms total)
T2184 001:444 JLINK_WriteReg(R12, 0x00000000)  returns 0x00 (0000ms, 0864ms total)
T2184 001:444 JLINK_WriteReg(R13 (SP), 0x20001000)  returns 0x00 (0000ms, 0864ms total)
T2184 001:444 JLINK_WriteReg(R14, 0x20000001)  returns 0x00 (0000ms, 0864ms total)
T2184 001:444 JLINK_WriteReg(R15 (PC), 0x20000020)  returns 0x00 (0000ms, 0864ms total)
T2184 001:444 JLINK_WriteReg(XPSR, 0x01000000)  returns 0x00 (0000ms, 0864ms total)
T2184 001:444 JLINK_WriteReg(MSP, 0x20001000)  returns 0x00 (0000ms, 0864ms total)
T2184 001:444 JLINK_WriteReg(PSP, 0x20001000)  returns 0x00 (0000ms, 0864ms total)
T2184 001:444 JLINK_WriteReg(CFBP, 0x00000000)  returns 0x00 (0000ms, 0864ms total)
T2184 001:444 JLINK_SetBPEx(Addr = 0x20000000, Type = 0xFFFFFFF2)  returns 0x00000002 (0000ms, 0864ms total)
T2184 001:444 JLINK_Go() -- CPU_ReadMem(4 bytes @ 0xE0001000) (0002ms, 0866ms total)
T2184 001:446 JLINK_IsHalted() -- CPU_ReadMem(2 bytes @ 0x20000000)  returns TRUE (0004ms, 0870ms total)
T2184 001:450 JLINK_ReadReg(R15 (PC))  returns 0x20000000 (0000ms, 0866ms total)
T2184 001:450 JLINK_ClrBPEx(BPHandle = 0x00000002)  returns 0x00 (0000ms, 0866ms total)
T2184 001:450 JLINK_ReadReg(R0)  returns 0x00000001 (0000ms, 0866ms total)
T2184 001:450 JLINK_WriteReg(R0, 0x08000000)  returns 0x00 (0000ms, 0866ms total)
T2184 001:450 JLINK_WriteReg(R1, 0x00004000)  returns 0x00 (0000ms, 0866ms total)
T2184 001:450 JLINK_WriteReg(R2, 0x000000FF)  returns 0x00 (0000ms, 0866ms total)
T2184 001:450 JLINK_WriteReg(R3, 0x00000000)  returns 0x00 (0000ms, 0866ms total)
T2184 001:450 JLINK_WriteReg(R4, 0x00000000)  returns 0x00 (0001ms, 0867ms total)
T2184 001:451 JLINK_WriteReg(R5, 0x00000000)  returns 0x00 (0000ms, 0867ms total)
T2184 001:451 JLINK_WriteReg(R6, 0x00000000)  returns 0x00 (0000ms, 0867ms total)
T2184 001:451 JLINK_WriteReg(R7, 0x00000000)  returns 0x00 (0000ms, 0867ms total)
T2184 001:451 JLINK_WriteReg(R8, 0x00000000)  returns 0x00 (0000ms, 0867ms total)
T2184 001:451 JLINK_WriteReg(R9, 0x20000194)  returns 0x00 (0000ms, 0867ms total)
T2184 001:451 JLINK_WriteReg(R10, 0x00000000)  returns 0x00 (0000ms, 0867ms total)
T2184 001:451 JLINK_WriteReg(R11, 0x00000000)  returns 0x00 (0000ms, 0867ms total)
T2184 001:451 JLINK_WriteReg(R12, 0x00000000)  returns 0x00 (0000ms, 0867ms total)
T2184 001:451 JLINK_WriteReg(R13 (SP), 0x20001000)  returns 0x00 (0000ms, 0867ms total)
T2184 001:451 JLINK_WriteReg(R14, 0x20000001)  returns 0x00 (0000ms, 0867ms total)
T2184 001:451 JLINK_WriteReg(R15 (PC), 0x200000D4)  returns 0x00 (0001ms, 0868ms total)
T2184 001:452 JLINK_WriteReg(XPSR, 0x01000000)  returns 0x00 (0000ms, 0868ms total)
T2184 001:452 JLINK_WriteReg(MSP, 0x20001000)  returns 0x00 (0000ms, 0868ms total)
T2184 001:452 JLINK_WriteReg(PSP, 0x20001000)  returns 0x00 (0000ms, 0868ms total)
T2184 001:452 JLINK_WriteReg(CFBP, 0x00000000)  returns 0x00 (0000ms, 0868ms total)
T2184 001:452 JLINK_SetBPEx(Addr = 0x20000000, Type = 0xFFFFFFF2)  returns 0x00000003 (0000ms, 0868ms total)
T2184 001:452 JLINK_Go() -- CPU_ReadMem(4 bytes @ 0xE0001000) (0002ms, 0870ms total)
T2184 001:454 JLINK_IsHalted()  returns FALSE (0000ms, 0870ms total)
T2184 001:731 JLINK_IsHalted()  returns FALSE (0000ms, 0870ms total)
T2184 001:850 JLINK_IsHalted() -- CPU_ReadMem(2 bytes @ 0x20000000)  returns TRUE (0002ms, 0872ms total)
T2184 001:852 JLINK_ReadReg(R15 (PC))  returns 0x20000000 (0000ms, 0870ms total)
T2184 001:852 JLINK_ClrBPEx(BPHandle = 0x00000003)  returns 0x00 (0000ms, 0870ms total)
T2184 001:852 JLINK_ReadReg(R0)  returns 0x00000000 (0000ms, 0870ms total)
T2184 001:854 JLINK_WriteReg(R0, 0x08004000)  returns 0x00 (0000ms, 0870ms total)
T2184 001:854 JLINK_WriteReg(R1, 0x00004000)  returns 0x00 (0000ms, 0870ms total)
T2184 001:854 JLINK_WriteReg(R2, 0x000000FF)  returns 0x00 (0000ms, 0870ms total)
T2184 001:854 JLINK_WriteReg(R3, 0x00000000)  returns 0x00 (0000ms, 0870ms total)
T2184 001:854 JLINK_WriteReg(R4, 0x00000000)  returns 0x00 (0000ms, 0870ms total)
T2184 001:854 JLINK_WriteReg(R5, 0x00000000)  returns 0x00 (0000ms, 0870ms total)
T2184 001:854 JLINK_WriteReg(R6, 0x00000000)  returns 0x00 (0000ms, 0870ms total)
T2184 001:854 JLINK_WriteReg(R7, 0x00000000)  returns 0x00 (0000ms, 0870ms total)
T2184 001:854 JLINK_WriteReg(R8, 0x00000000)  returns 0x00 (0000ms, 0870ms total)
T2184 001:854 JLINK_WriteReg(R9, 0x20000194)  returns 0x00 (0000ms, 0870ms total)
T2184 001:854 JLINK_WriteReg(R10, 0x00000000)  returns 0x00 (0000ms, 0870ms total)
T2184 001:854 JLINK_WriteReg(R11, 0x00000000)  returns 0x00 (0001ms, 0871ms total)
T2184 001:855 JLINK_WriteReg(R12, 0x00000000)  returns 0x00 (0000ms, 0871ms total)
T2184 001:855 JLINK_WriteReg(R13 (SP), 0x20001000)  returns 0x00 (0000ms, 0871ms total)
T2184 001:855 JLINK_WriteReg(R14, 0x20000001)  returns 0x00 (0000ms, 0871ms total)
T2184 001:855 JLINK_WriteReg(R15 (PC), 0x20000020)  returns 0x00 (0000ms, 0871ms total)
T2184 001:855 JLINK_WriteReg(XPSR, 0x01000000)  returns 0x00 (0000ms, 0871ms total)
T2184 001:855 JLINK_WriteReg(MSP, 0x20001000)  returns 0x00 (0000ms, 0871ms total)
T2184 001:855 JLINK_WriteReg(PSP, 0x20001000)  returns 0x00 (0000ms, 0871ms total)
T2184 001:855 JLINK_WriteReg(CFBP, 0x00000000)  returns 0x00 (0000ms, 0871ms total)
T2184 001:855 JLINK_SetBPEx(Addr = 0x20000000, Type = 0xFFFFFFF2)  returns 0x00000004 (0000ms, 0871ms total)
T2184 001:855 JLINK_Go() -- CPU_ReadMem(4 bytes @ 0xE0001000) (0003ms, 0874ms total)
T2184 001:858 JLINK_IsHalted() -- CPU_ReadMem(2 bytes @ 0x20000000)  returns TRUE (0003ms, 0877ms total)
T2184 001:861 JLINK_ReadReg(R15 (PC))  returns 0x20000000 (0000ms, 0874ms total)
T2184 001:861 JLINK_ClrBPEx(BPHandle = 0x00000004)  returns 0x00 (0000ms, 0874ms total)
T2184 001:861 JLINK_ReadReg(R0)  returns 0x00000001 (0000ms, 0874ms total)
T2184 001:861 JLINK_WriteReg(R0, 0x08004000)  returns 0x00 (0000ms, 0874ms total)
T2184 001:861 JLINK_WriteReg(R1, 0x00004000)  returns 0x00 (0000ms, 0874ms total)
T2184 001:862 JLINK_WriteReg(R2, 0x000000FF)  returns 0x00 (0000ms, 0875ms total)
T2184 001:862 JLINK_WriteReg(R3, 0x00000000)  returns 0x00 (0000ms, 0875ms total)
T2184 001:862 JLINK_WriteReg(R4, 0x00000000)  returns 0x00 (0000ms, 0875ms total)
T2184 001:862 JLINK_WriteReg(R5, 0x00000000)  returns 0x00 (0000ms, 0875ms total)
T2184 001:862 JLINK_WriteReg(R6, 0x00000000)  returns 0x00 (0000ms, 0875ms total)
T2184 001:862 JLINK_WriteReg(R7, 0x00000000)  returns 0x00 (0000ms, 0875ms total)
T2184 001:862 JLINK_WriteReg(R8, 0x00000000)  returns 0x00 (0000ms, 0875ms total)
T2184 001:862 JLINK_WriteReg(R9, 0x20000194)  returns 0x00 (0000ms, 0875ms total)
T2184 001:862 JLINK_WriteReg(R10, 0x00000000)  returns 0x00 (0000ms, 0875ms total)
T2184 001:862 JLINK_WriteReg(R11, 0x00000000)  returns 0x00 (0000ms, 0875ms total)
T2184 001:862 JLINK_WriteReg(R12, 0x00000000)  returns 0x00 (0000ms, 0875ms total)
T2184 001:862 JLINK_WriteReg(R13 (SP), 0x20001000)  returns 0x00 (0000ms, 0875ms total)
T2184 001:862 JLINK_WriteReg(R14, 0x20000001)  returns 0x00 (0000ms, 0875ms total)
T2184 001:862 JLINK_WriteReg(R15 (PC), 0x200000D4)  returns 0x00 (0000ms, 0875ms total)
T2184 001:862 JLINK_WriteReg(XPSR, 0x01000000)  returns 0x00 (0001ms, 0876ms total)
T2184 001:863 JLINK_WriteReg(MSP, 0x20001000)  returns 0x00 (0000ms, 0876ms total)
T2184 001:863 JLINK_WriteReg(PSP, 0x20001000)  returns 0x00 (0000ms, 0876ms total)
T2184 001:863 JLINK_WriteReg(CFBP, 0x00000000)  returns 0x00 (0000ms, 0876ms total)
T2184 001:863 JLINK_SetBPEx(Addr = 0x20000000, Type = 0xFFFFFFF2)  returns 0x00000005 (0000ms, 0876ms total)
T2184 001:863 JLINK_Go() -- CPU_ReadMem(4 bytes @ 0xE0001000) (0002ms, 0878ms total)
T2184 001:865 JLINK_IsHalted()  returns FALSE (0000ms, 0878ms total)
T2184 001:977 JLINK_IsHalted()  returns FALSE (0000ms, 0878ms total)
T2184 002:101 JLINK_IsHalted()  returns FALSE (0000ms, 0878ms total)
T2184 002:256 JLINK_IsHalted() -- CPU_ReadMem(2 bytes @ 0x20000000)  returns TRUE (0003ms, 0881ms total)
T2184 002:259 JLINK_ReadReg(R15 (PC))  returns 0x20000000 (0000ms, 0878ms total)
T2184 002:259 JLINK_ClrBPEx(BPHandle = 0x00000005)  returns 0x00 (0001ms, 0879ms total)
T2184 002:260 JLINK_ReadReg(R0)  returns 0x00000000 (0000ms, 0879ms total)
T2184 002:260 JLINK_WriteReg(R0, 0x00000001)  returns 0x00 (0001ms, 0880ms total)
T2184 002:261 JLINK_WriteReg(R1, 0x00004000)  returns 0x00 (0000ms, 0880ms total)
T2184 002:261 JLINK_WriteReg(R2, 0x000000FF)  returns 0x00 (0000ms, 0880ms total)
T2184 002:261 JLINK_WriteReg(R3, 0x00000000)  returns 0x00 (0000ms, 0880ms total)
T2184 002:261 JLINK_WriteReg(R4, 0x00000000)  returns 0x00 (0000ms, 0880ms total)
T2184 002:261 JLINK_WriteReg(R5, 0x00000000)  returns 0x00 (0000ms, 0880ms total)
T2184 002:261 JLINK_WriteReg(R6, 0x00000000)  returns 0x00 (0000ms, 0880ms total)
T2184 002:261 JLINK_WriteReg(R7, 0x00000000)  returns 0x00 (0000ms, 0880ms total)
T2184 002:261 JLINK_WriteReg(R8, 0x00000000)  returns 0x00 (0000ms, 0880ms total)
T2184 002:261 JLINK_WriteReg(R9, 0x20000194)  returns 0x00 (0000ms, 0880ms total)
T2184 002:261 JLINK_WriteReg(R10, 0x00000000)  returns 0x00 (0000ms, 0880ms total)
T2184 002:261 JLINK_WriteReg(R11, 0x00000000)  returns 0x00 (0000ms, 0880ms total)
T2184 002:261 JLINK_WriteReg(R12, 0x00000000)  returns 0x00 (0000ms, 0880ms total)
T2184 002:261 JLINK_WriteReg(R13 (SP), 0x20001000)  returns 0x00 (0000ms, 0880ms total)
T2184 002:261 JLINK_WriteReg(R14, 0x20000001)  returns 0x00 (0000ms, 0880ms total)
T2184 002:261 JLINK_WriteReg(R15 (PC), 0x2000008C)  returns 0x00 (0001ms, 0881ms total)
T2184 002:262 JLINK_WriteReg(XPSR, 0x01000000)  returns 0x00 (0000ms, 0881ms total)
T2184 002:262 JLINK_WriteReg(MSP, 0x20001000)  returns 0x00 (0000ms, 0881ms total)
T2184 002:262 JLINK_WriteReg(PSP, 0x20001000)  returns 0x00 (0000ms, 0881ms total)
T2184 002:262 JLINK_WriteReg(CFBP, 0x00000000)  returns 0x00 (0000ms, 0881ms total)
T2184 002:262 JLINK_SetBPEx(Addr = 0x20000000, Type = 0xFFFFFFF2)  returns 0x00000006 (0000ms, 0881ms total)
T2184 002:262 JLINK_Go() -- CPU_ReadMem(4 bytes @ 0xE0001000) (0002ms, 0883ms total)
T2184 002:264 JLINK_IsHalted() -- CPU_ReadMem(2 bytes @ 0x20000000)  returns TRUE (0004ms, 0887ms total)
T2184 002:268 JLINK_ReadReg(R15 (PC))  returns 0x20000000 (0000ms, 0883ms total)
T2184 002:268 JLINK_ClrBPEx(BPHandle = 0x00000006)  returns 0x00 (0000ms, 0883ms total)
T2184 002:268 JLINK_ReadReg(R0)  returns 0x00000000 (0000ms, 0883ms total)
T2184 002:344 JLINK_WriteMem(0x20000000, 0x0198 Bytes, ...) - Data: 00 BE 0A E0 0D 78 2D 06 68 40 08 24 40 00 00 D3 ... -- CPU_WriteMem(408 bytes @ 0x20000000)  returns 0x198 (0006ms, 0889ms total)
T2184 002:350 JLINK_WriteReg(R0, 0x08000000)  returns 0x00 (0000ms, 0889ms total)
T2184 002:350 JLINK_WriteReg(R1, 0x00B71B00)  returns 0x00 (0000ms, 0889ms total)
T2184 002:350 JLINK_WriteReg(R2, 0x00000002)  returns 0x00 (0000ms, 0889ms total)
T2184 002:350 JLINK_WriteReg(R3, 0x00000000)  returns 0x00 (0000ms, 0889ms total)
T2184 002:350 JLINK_WriteReg(R4, 0x00000000)  returns 0x00 (0000ms, 0889ms total)
T2184 002:350 JLINK_WriteReg(R5, 0x00000000)  returns 0x00 (0000ms, 0889ms total)
T2184 002:350 JLINK_WriteReg(R6, 0x00000000)  returns 0x00 (0000ms, 0889ms total)
T2184 002:350 JLINK_WriteReg(R7, 0x00000000)  returns 0x00 (0000ms, 0889ms total)
T2184 002:350 JLINK_WriteReg(R8, 0x00000000)  returns 0x00 (0000ms, 0889ms total)
T2184 002:350 JLINK_WriteReg(R9, 0x20000194)  returns 0x00 (0000ms, 0889ms total)
T2184 002:350 JLINK_WriteReg(R10, 0x00000000)  returns 0x00 (0001ms, 0890ms total)
T2184 002:351 JLINK_WriteReg(R11, 0x00000000)  returns 0x00 (0000ms, 0890ms total)
T2184 002:351 JLINK_WriteReg(R12, 0x00000000)  returns 0x00 (0000ms, 0890ms total)
T2184 002:351 JLINK_WriteReg(R13 (SP), 0x20001000)  returns 0x00 (0000ms, 0890ms total)
T2184 002:351 JLINK_WriteReg(R14, 0x20000001)  returns 0x00 (0000ms, 0890ms total)
T2184 002:351 JLINK_WriteReg(R15 (PC), 0x2000005E)  returns 0x00 (0000ms, 0890ms total)
T2184 002:351 JLINK_WriteReg(XPSR, 0x01000000)  returns 0x00 (0000ms, 0890ms total)
T2184 002:351 JLINK_WriteReg(MSP, 0x20001000)  returns 0x00 (0000ms, 0890ms total)
T2184 002:351 JLINK_WriteReg(PSP, 0x20001000)  returns 0x00 (0000ms, 0890ms total)
T2184 002:351 JLINK_WriteReg(CFBP, 0x00000000)  returns 0x00 (0000ms, 0890ms total)
T2184 002:351 JLINK_SetBPEx(Addr = 0x20000000, Type = 0xFFFFFFF2) -- CPU_ReadMem(2 bytes @ 0x20000000)  returns 0x00000007 (0001ms, 0891ms total)
T2184 002:352 JLINK_Go() -- CPU_WriteMem(2 bytes @ 0x20000000) -- CPU_ReadMem(4 bytes @ 0xE0001000) (0002ms, 0893ms total)
T2184 002:354 JLINK_IsHalted() -- CPU_ReadMem(2 bytes @ 0x20000000)  returns TRUE (0004ms, 0897ms total)
T2184 002:358 JLINK_ReadReg(R15 (PC))  returns 0x20000000 (0000ms, 0893ms total)
T2184 002:358 JLINK_ClrBPEx(BPHandle = 0x00000007)  returns 0x00 (0000ms, 0893ms total)
T2184 002:358 JLINK_ReadReg(R0)  returns 0x00000000 (0000ms, 0893ms total)
T2184 002:359 JLINK_WriteMem(0x20000198, 0x0400 Bytes, ...) - Data: 60 55 00 20 7D 02 00 08 11 4A 00 08 E3 3B 00 08 ... -- CPU_WriteMem(1024 bytes @ 0x20000198)  returns 0x400 (0012ms, 0905ms total)
T2184 002:371 JLINK_WriteReg(R0, 0x08000000)  returns 0x00 (0000ms, 0905ms total)
T2184 002:371 JLINK_WriteReg(R1, 0x00000400)  returns 0x00 (0000ms, 0905ms total)
T2184 002:371 JLINK_WriteReg(R2, 0x20000198)  returns 0x00 (0001ms, 0906ms total)
T2184 002:372 JLINK_WriteReg(R3, 0x00000000)  returns 0x00 (0000ms, 0906ms total)
T2184 002:372 JLINK_WriteReg(R4, 0x00000000)  returns 0x00 (0000ms, 0906ms total)
T2184 002:372 JLINK_WriteReg(R5, 0x00000000)  returns 0x00 (0000ms, 0906ms total)
T2184 002:372 JLINK_WriteReg(R6, 0x00000000)  returns 0x00 (0000ms, 0906ms total)
T2184 002:372 JLINK_WriteReg(R7, 0x00000000)  returns 0x00 (0000ms, 0906ms total)
T2184 002:372 JLINK_WriteReg(R8, 0x00000000)  returns 0x00 (0000ms, 0906ms total)
T2184 002:372 JLINK_WriteReg(R9, 0x20000194)  returns 0x00 (0000ms, 0906ms total)
T2184 002:372 JLINK_WriteReg(R10, 0x00000000)  returns 0x00 (0000ms, 0906ms total)
T2184 002:372 JLINK_WriteReg(R11, 0x00000000)  returns 0x00 (0000ms, 0906ms total)
T2184 002:372 JLINK_WriteReg(R12, 0x00000000)  returns 0x00 (0000ms, 0906ms total)
T2184 002:372 JLINK_WriteReg(R13 (SP), 0x20001000)  returns 0x00 (0000ms, 0906ms total)
T2184 002:372 JLINK_WriteReg(R14, 0x20000001)  returns 0x00 (0000ms, 0906ms total)
T2184 002:372 JLINK_WriteReg(R15 (PC), 0x20000120)  returns 0x00 (0001ms, 0907ms total)
T2184 002:373 JLINK_WriteReg(XPSR, 0x01000000)  returns 0x00 (0000ms, 0907ms total)
T2184 002:373 JLINK_WriteReg(MSP, 0x20001000)  returns 0x00 (0000ms, 0907ms total)
T2184 002:373 JLINK_WriteReg(PSP, 0x20001000)  returns 0x00 (0000ms, 0907ms total)
T2184 002:373 JLINK_WriteReg(CFBP, 0x00000000)  returns 0x00 (0000ms, 0907ms total)
T2184 002:373 JLINK_SetBPEx(Addr = 0x20000000, Type = 0xFFFFFFF2)  returns 0x00000008 (0000ms, 0907ms total)
T2184 002:373 JLINK_Go() -- CPU_ReadMem(4 bytes @ 0xE0001000) (0002ms, 0909ms total)
T2184 002:375 JLINK_IsHalted()  returns FALSE (0001ms, 0910ms total)
T2184 002:490 JLINK_IsHalted() -- CPU_ReadMem(2 bytes @ 0x20000000)  returns TRUE (0003ms, 0912ms total)
T2184 002:493 JLINK_ReadReg(R15 (PC))  returns 0x20000000 (0000ms, 0909ms total)
T2184 002:493 JLINK_ClrBPEx(BPHandle = 0x00000008)  returns 0x00 (0000ms, 0909ms total)
T2184 002:493 JLINK_ReadReg(R0)  returns 0x00000000 (0000ms, 0909ms total)
T2184 002:494 JLINK_WriteMem(0x20000198, 0x0400 Bytes, ...) - Data: BD E8 F0 4F 00 F0 12 BA 00 98 01 22 40 00 00 23 ... -- CPU_WriteMem(1024 bytes @ 0x20000198)  returns 0x400 (0013ms, 0923ms total)
T2184 002:507 JLINK_WriteReg(R0, 0x08000400)  returns 0x00 (0000ms, 0923ms total)
T2184 002:507 JLINK_WriteReg(R1, 0x00000400)  returns 0x00 (0000ms, 0923ms total)
T2184 002:507 JLINK_WriteReg(R2, 0x20000198)  returns 0x00 (0000ms, 0923ms total)
T2184 002:507 JLINK_WriteReg(R3, 0x00000000)  returns 0x00 (0000ms, 0923ms total)
T2184 002:507 JLINK_WriteReg(R4, 0x00000000)  returns 0x00 (0000ms, 0923ms total)
T2184 002:507 JLINK_WriteReg(R5, 0x00000000)  returns 0x00 (0000ms, 0923ms total)
T2184 002:507 JLINK_WriteReg(R6, 0x00000000)  returns 0x00 (0000ms, 0923ms total)
T2184 002:507 JLINK_WriteReg(R7, 0x00000000)  returns 0x00 (0000ms, 0923ms total)
T2184 002:507 JLINK_WriteReg(R8, 0x00000000)  returns 0x00 (0000ms, 0923ms total)
T2184 002:507 JLINK_WriteReg(R9, 0x20000194)  returns 0x00 (0000ms, 0923ms total)
T2184 002:507 JLINK_WriteReg(R10, 0x00000000)  returns 0x00 (0000ms, 0923ms total)
T2184 002:507 JLINK_WriteReg(R11, 0x00000000)  returns 0x00 (0000ms, 0923ms total)
T2184 002:507 JLINK_WriteReg(R12, 0x00000000)  returns 0x00 (0000ms, 0923ms total)
T2184 002:508 JLINK_WriteReg(R13 (SP), 0x20001000)  returns 0x00 (0000ms, 0924ms total)
T2184 002:508 JLINK_WriteReg(R14, 0x20000001)  returns 0x00 (0000ms, 0924ms total)
T2184 002:508 JLINK_WriteReg(R15 (PC), 0x20000120)  returns 0x00 (0000ms, 0924ms total)
T2184 002:508 JLINK_WriteReg(XPSR, 0x01000000)  returns 0x00 (0000ms, 0924ms total)
T2184 002:508 JLINK_WriteReg(MSP, 0x20001000)  returns 0x00 (0000ms, 0924ms total)
T2184 002:508 JLINK_WriteReg(PSP, 0x20001000)  returns 0x00 (0000ms, 0924ms total)
T2184 002:508 JLINK_WriteReg(CFBP, 0x00000000)  returns 0x00 (0000ms, 0924ms total)
T2184 002:508 JLINK_SetBPEx(Addr = 0x20000000, Type = 0xFFFFFFF2)  returns 0x00000009 (0000ms, 0924ms total)
T2184 002:508 JLINK_Go() -- CPU_ReadMem(4 bytes @ 0xE0001000) (0002ms, 0926ms total)
T2184 002:510 JLINK_IsHalted()  returns FALSE (0001ms, 0927ms total)
T2184 002:626 JLINK_IsHalted() -- CPU_ReadMem(2 bytes @ 0x20000000)  returns TRUE (0004ms, 0930ms total)
T2184 002:630 JLINK_ReadReg(R15 (PC))  returns 0x20000000 (0000ms, 0926ms total)
T2184 002:630 JLINK_ClrBPEx(BPHandle = 0x00000009)  returns 0x00 (0000ms, 0926ms total)
T2184 002:630 JLINK_ReadReg(R0)  returns 0x00000000 (0000ms, 0926ms total)
T2184 002:631 JLINK_WriteMem(0x20000198, 0x0400 Bytes, ...) - Data: 4F EA 00 61 4F EA 10 20 42 BF 00 20 10 BC 70 47 ... -- CPU_WriteMem(1024 bytes @ 0x20000198)  returns 0x400 (0012ms, 0938ms total)
T2184 002:643 JLINK_WriteReg(R0, 0x08000800)  returns 0x00 (0000ms, 0938ms total)
T2184 002:643 JLINK_WriteReg(R1, 0x00000400)  returns 0x00 (0000ms, 0938ms total)
T2184 002:643 JLINK_WriteReg(R2, 0x20000198)  returns 0x00 (0000ms, 0938ms total)
T2184 002:643 JLINK_WriteReg(R3, 0x00000000)  returns 0x00 (0000ms, 0938ms total)
T2184 002:643 JLINK_WriteReg(R4, 0x00000000)  returns 0x00 (0000ms, 0938ms total)
T2184 002:643 JLINK_WriteReg(R5, 0x00000000)  returns 0x00 (0000ms, 0938ms total)
T2184 002:643 JLINK_WriteReg(R6, 0x00000000)  returns 0x00 (0000ms, 0938ms total)
T2184 002:644 JLINK_WriteReg(R7, 0x00000000)  returns 0x00 (0000ms, 0939ms total)
T2184 002:644 JLINK_WriteReg(R8, 0x00000000)  returns 0x00 (0000ms, 0939ms total)
T2184 002:644 JLINK_WriteReg(R9, 0x20000194)  returns 0x00 (0000ms, 0939ms total)
T2184 002:644 JLINK_WriteReg(R10, 0x00000000)  returns 0x00 (0000ms, 0939ms total)
T2184 002:644 JLINK_WriteReg(R11, 0x00000000)  returns 0x00 (0000ms, 0939ms total)
T2184 002:644 JLINK_WriteReg(R12, 0x00000000)  returns 0x00 (0000ms, 0939ms total)
T2184 002:644 JLINK_WriteReg(R13 (SP), 0x20001000)  returns 0x00 (0000ms, 0939ms total)
T2184 002:644 JLINK_WriteReg(R14, 0x20000001)  returns 0x00 (0000ms, 0939ms total)
T2184 002:644 JLINK_WriteReg(R15 (PC), 0x20000120)  returns 0x00 (0000ms, 0939ms total)
T2184 002:644 JLINK_WriteReg(XPSR, 0x01000000)  returns 0x00 (0000ms, 0939ms total)
T2184 002:644 JLINK_WriteReg(MSP, 0x20001000)  returns 0x00 (0000ms, 0939ms total)
T2184 002:644 JLINK_WriteReg(PSP, 0x20001000)  returns 0x00 (0000ms, 0939ms total)
T2184 002:644 JLINK_WriteReg(CFBP, 0x00000000)  returns 0x00 (0000ms, 0939ms total)
T2184 002:644 JLINK_SetBPEx(Addr = 0x20000000, Type = 0xFFFFFFF2)  returns 0x0000000A (0000ms, 0939ms total)
T2184 002:644 JLINK_Go() -- CPU_ReadMem(4 bytes @ 0xE0001000) (0003ms, 0942ms total)
T2184 002:647 JLINK_IsHalted()  returns FALSE (0000ms, 0942ms total)
T2184 002:760 JLINK_IsHalted() -- CPU_ReadMem(2 bytes @ 0x20000000)  returns TRUE (0003ms, 0945ms total)
T2184 002:763 JLINK_ReadReg(R15 (PC))  returns 0x20000000 (0000ms, 0942ms total)
T2184 002:763 JLINK_ClrBPEx(BPHandle = 0x0000000A)  returns 0x00 (0000ms, 0942ms total)
T2184 002:763 JLINK_ReadReg(R0)  returns 0x00000000 (0000ms, 0942ms total)
T2184 002:765 JLINK_WriteMem(0x20000198, 0x0400 Bytes, ...) - Data: A8 41 00 20 68 41 00 20 E8 41 00 20 A4 47 00 20 ... -- CPU_WriteMem(1024 bytes @ 0x20000198)  returns 0x400 (0012ms, 0954ms total)
T2184 002:777 JLINK_WriteReg(R0, 0x08000C00)  returns 0x00 (0001ms, 0955ms total)
T2184 002:778 JLINK_WriteReg(R1, 0x00000400)  returns 0x00 (0000ms, 0955ms total)
T2184 002:778 JLINK_WriteReg(R2, 0x20000198)  returns 0x00 (0000ms, 0955ms total)
T2184 002:778 JLINK_WriteReg(R3, 0x00000000)  returns 0x00 (0000ms, 0955ms total)
T2184 002:778 JLINK_WriteReg(R4, 0x00000000)  returns 0x00 (0000ms, 0955ms total)
T2184 002:778 JLINK_WriteReg(R5, 0x00000000)  returns 0x00 (0000ms, 0955ms total)
T2184 002:778 JLINK_WriteReg(R6, 0x00000000)  returns 0x00 (0000ms, 0955ms total)
T2184 002:778 JLINK_WriteReg(R7, 0x00000000)  returns 0x00 (0000ms, 0955ms total)
T2184 002:778 JLINK_WriteReg(R8, 0x00000000)  returns 0x00 (0000ms, 0955ms total)
T2184 002:778 JLINK_WriteReg(R9, 0x20000194)  returns 0x00 (0000ms, 0955ms total)
T2184 002:778 JLINK_WriteReg(R10, 0x00000000)  returns 0x00 (0000ms, 0955ms total)
T2184 002:778 JLINK_WriteReg(R11, 0x00000000)  returns 0x00 (0000ms, 0955ms total)
T2184 002:778 JLINK_WriteReg(R12, 0x00000000)  returns 0x00 (0000ms, 0955ms total)
T2184 002:778 JLINK_WriteReg(R13 (SP), 0x20001000)  returns 0x00 (0000ms, 0955ms total)
T2184 002:778 JLINK_WriteReg(R14, 0x20000001)  returns 0x00 (0000ms, 0955ms total)
T2184 002:778 JLINK_WriteReg(R15 (PC), 0x20000120)  returns 0x00 (0001ms, 0956ms total)
T2184 002:779 JLINK_WriteReg(XPSR, 0x01000000)  returns 0x00 (0000ms, 0956ms total)
T2184 002:779 JLINK_WriteReg(MSP, 0x20001000)  returns 0x00 (0000ms, 0956ms total)
T2184 002:779 JLINK_WriteReg(PSP, 0x20001000)  returns 0x00 (0000ms, 0956ms total)
T2184 002:779 JLINK_WriteReg(CFBP, 0x00000000)  returns 0x00 (0000ms, 0956ms total)
T2184 002:779 JLINK_SetBPEx(Addr = 0x20000000, Type = 0xFFFFFFF2)  returns 0x0000000B (0000ms, 0956ms total)
T2184 002:779 JLINK_Go() -- CPU_ReadMem(4 bytes @ 0xE0001000) (0002ms, 0958ms total)
T2184 002:781 JLINK_IsHalted()  returns FALSE (0001ms, 0959ms total)
T2184 002:898 JLINK_IsHalted() -- CPU_ReadMem(2 bytes @ 0x20000000)  returns TRUE (0003ms, 0961ms total)
T2184 002:901 JLINK_ReadReg(R15 (PC))  returns 0x20000000 (0000ms, 0958ms total)
T2184 002:901 JLINK_ClrBPEx(BPHandle = 0x0000000B)  returns 0x00 (0000ms, 0958ms total)
T2184 002:901 JLINK_ReadReg(R0)  returns 0x00000000 (0000ms, 0958ms total)
T2184 002:902 JLINK_WriteMem(0x20000198, 0x0400 Bytes, ...) - Data: 3B 46 2A 46 03 21 03 F0 39 FD 64 1C 04 2C EF DB ... -- CPU_WriteMem(1024 bytes @ 0x20000198)  returns 0x400 (0013ms, 0971ms total)
T2184 002:915 JLINK_WriteReg(R0, 0x08001000)  returns 0x00 (0000ms, 0971ms total)
T2184 002:915 JLINK_WriteReg(R1, 0x00000400)  returns 0x00 (0000ms, 0971ms total)
T2184 002:915 JLINK_WriteReg(R2, 0x20000198)  returns 0x00 (0000ms, 0971ms total)
T2184 002:915 JLINK_WriteReg(R3, 0x00000000)  returns 0x00 (0000ms, 0971ms total)
T2184 002:915 JLINK_WriteReg(R4, 0x00000000)  returns 0x00 (0000ms, 0971ms total)
T2184 002:915 JLINK_WriteReg(R5, 0x00000000)  returns 0x00 (0000ms, 0971ms total)
T2184 002:915 JLINK_WriteReg(R6, 0x00000000)  returns 0x00 (0000ms, 0971ms total)
T2184 002:915 JLINK_WriteReg(R7, 0x00000000)  returns 0x00 (0000ms, 0971ms total)
T2184 002:915 JLINK_WriteReg(R8, 0x00000000)  returns 0x00 (0000ms, 0971ms total)
T2184 002:915 JLINK_WriteReg(R9, 0x20000194)  returns 0x00 (0000ms, 0971ms total)
T2184 002:915 JLINK_WriteReg(R10, 0x00000000)  returns 0x00 (0000ms, 0971ms total)
T2184 002:915 JLINK_WriteReg(R11, 0x00000000)  returns 0x00 (0000ms, 0971ms total)
T2184 002:915 JLINK_WriteReg(R12, 0x00000000)  returns 0x00 (0000ms, 0971ms total)
T2184 002:915 JLINK_WriteReg(R13 (SP), 0x20001000)  returns 0x00 (0000ms, 0971ms total)
T2184 002:916 JLINK_WriteReg(R14, 0x20000001)  returns 0x00 (0000ms, 0972ms total)
T2184 002:916 JLINK_WriteReg(R15 (PC), 0x20000120)  returns 0x00 (0000ms, 0972ms total)
T2184 002:916 JLINK_WriteReg(XPSR, 0x01000000)  returns 0x00 (0000ms, 0972ms total)
T2184 002:916 JLINK_WriteReg(MSP, 0x20001000)  returns 0x00 (0000ms, 0972ms total)
T2184 002:916 JLINK_WriteReg(PSP, 0x20001000)  returns 0x00 (0000ms, 0972ms total)
T2184 002:916 JLINK_WriteReg(CFBP, 0x00000000)  returns 0x00 (0000ms, 0972ms total)
T2184 002:916 JLINK_SetBPEx(Addr = 0x20000000, Type = 0xFFFFFFF2)  returns 0x0000000C (0000ms, 0972ms total)
T2184 002:916 JLINK_Go() -- CPU_ReadMem(4 bytes @ 0xE0001000) (0002ms, 0974ms total)
T2184 002:918 JLINK_IsHalted()  returns FALSE (0001ms, 0975ms total)
T2184 003:033 JLINK_IsHalted() -- CPU_ReadMem(2 bytes @ 0x20000000)  returns TRUE (0003ms, 0977ms total)
T2184 003:036 JLINK_ReadReg(R15 (PC))  returns 0x20000000 (0000ms, 0974ms total)
T2184 003:036 JLINK_ClrBPEx(BPHandle = 0x0000000C)  returns 0x00 (0000ms, 0974ms total)
T2184 003:036 JLINK_ReadReg(R0)  returns 0x00000000 (0001ms, 0975ms total)
T2184 003:037 JLINK_WriteMem(0x20000198, 0x0400 Bytes, ...) - Data: 05 0A 04 F0 13 FD DB ED 14 0A 97 ED 09 0A 24 48 ... -- CPU_WriteMem(1024 bytes @ 0x20000198)  returns 0x400 (0013ms, 0988ms total)
T2184 003:050 JLINK_WriteReg(R0, 0x08001400)  returns 0x00 (0000ms, 0988ms total)
T2184 003:050 JLINK_WriteReg(R1, 0x00000400)  returns 0x00 (0000ms, 0988ms total)
T2184 003:050 JLINK_WriteReg(R2, 0x20000198)  returns 0x00 (0000ms, 0988ms total)
T2184 003:050 JLINK_WriteReg(R3, 0x00000000)  returns 0x00 (0000ms, 0988ms total)
T2184 003:050 JLINK_WriteReg(R4, 0x00000000)  returns 0x00 (0000ms, 0988ms total)
T2184 003:050 JLINK_WriteReg(R5, 0x00000000)  returns 0x00 (0000ms, 0988ms total)
T2184 003:050 JLINK_WriteReg(R6, 0x00000000)  returns 0x00 (0000ms, 0988ms total)
T2184 003:050 JLINK_WriteReg(R7, 0x00000000)  returns 0x00 (0000ms, 0988ms total)
T2184 003:050 JLINK_WriteReg(R8, 0x00000000)  returns 0x00 (0000ms, 0988ms total)
T2184 003:050 JLINK_WriteReg(R9, 0x20000194)  returns 0x00 (0000ms, 0988ms total)
T2184 003:050 JLINK_WriteReg(R10, 0x00000000)  returns 0x00 (0000ms, 0988ms total)
T2184 003:050 JLINK_WriteReg(R11, 0x00000000)  returns 0x00 (0000ms, 0988ms total)
T2184 003:051 JLINK_WriteReg(R12, 0x00000000)  returns 0x00 (0000ms, 0989ms total)
T2184 003:051 JLINK_WriteReg(R13 (SP), 0x20001000)  returns 0x00 (0000ms, 0989ms total)
T2184 003:051 JLINK_WriteReg(R14, 0x20000001)  returns 0x00 (0000ms, 0989ms total)
T2184 003:051 JLINK_WriteReg(R15 (PC), 0x20000120)  returns 0x00 (0000ms, 0989ms total)
T2184 003:051 JLINK_WriteReg(XPSR, 0x01000000)  returns 0x00 (0000ms, 0989ms total)
T2184 003:051 JLINK_WriteReg(MSP, 0x20001000)  returns 0x00 (0000ms, 0989ms total)
T2184 003:051 JLINK_WriteReg(PSP, 0x20001000)  returns 0x00 (0000ms, 0989ms total)
T2184 003:051 JLINK_WriteReg(CFBP, 0x00000000)  returns 0x00 (0000ms, 0989ms total)
T2184 003:051 JLINK_SetBPEx(Addr = 0x20000000, Type = 0xFFFFFFF2)  returns 0x0000000D (0000ms, 0989ms total)
T2184 003:051 JLINK_Go() -- CPU_ReadMem(4 bytes @ 0xE0001000) (0002ms, 0991ms total)
T2184 003:053 JLINK_IsHalted()  returns FALSE (0001ms, 0992ms total)
T2184 003:175 JLINK_IsHalted() -- CPU_ReadMem(2 bytes @ 0x20000000)  returns TRUE (0003ms, 0994ms total)
T2184 003:178 JLINK_ReadReg(R15 (PC))  returns 0x20000000 (0000ms, 0991ms total)
T2184 003:178 JLINK_ClrBPEx(BPHandle = 0x0000000D)  returns 0x00 (0000ms, 0991ms total)
T2184 003:178 JLINK_ReadReg(R0)  returns 0x00000000 (0000ms, 0991ms total)
T2184 003:179 JLINK_WriteMem(0x20000198, 0x0400 Bytes, ...) - Data: B1 FB F2 F1 01 EB 81 01 49 00 00 E0 49 1E 00 91 ... -- CPU_WriteMem(1024 bytes @ 0x20000198)  returns 0x400 (0012ms, 1003ms total)
T2184 003:191 JLINK_WriteReg(R0, 0x08001800)  returns 0x00 (0001ms, 1004ms total)
T2184 003:192 JLINK_WriteReg(R1, 0x00000400)  returns 0x00 (0000ms, 1004ms total)
T2184 003:192 JLINK_WriteReg(R2, 0x20000198)  returns 0x00 (0000ms, 1004ms total)
T2184 003:192 JLINK_WriteReg(R3, 0x00000000)  returns 0x00 (0000ms, 1004ms total)
T2184 003:192 JLINK_WriteReg(R4, 0x00000000)  returns 0x00 (0000ms, 1004ms total)
T2184 003:192 JLINK_WriteReg(R5, 0x00000000)  returns 0x00 (0000ms, 1004ms total)
T2184 003:192 JLINK_WriteReg(R6, 0x00000000)  returns 0x00 (0000ms, 1004ms total)
T2184 003:192 JLINK_WriteReg(R7, 0x00000000)  returns 0x00 (0000ms, 1004ms total)
T2184 003:192 JLINK_WriteReg(R8, 0x00000000)  returns 0x00 (0000ms, 1004ms total)
T2184 003:192 JLINK_WriteReg(R9, 0x20000194)  returns 0x00 (0000ms, 1004ms total)
T2184 003:192 JLINK_WriteReg(R10, 0x00000000)  returns 0x00 (0000ms, 1004ms total)
T2184 003:192 JLINK_WriteReg(R11, 0x00000000)  returns 0x00 (0000ms, 1004ms total)
T2184 003:192 JLINK_WriteReg(R12, 0x00000000)  returns 0x00 (0000ms, 1004ms total)
T2184 003:192 JLINK_WriteReg(R13 (SP), 0x20001000)  returns 0x00 (0000ms, 1004ms total)
T2184 003:193 JLINK_WriteReg(R14, 0x20000001)  returns 0x00 (0000ms, 1004ms total)
T2184 003:193 JLINK_WriteReg(R15 (PC), 0x20000120)  returns 0x00 (0000ms, 1004ms total)
T2184 003:193 JLINK_WriteReg(XPSR, 0x01000000)  returns 0x00 (0000ms, 1004ms total)
T2184 003:193 JLINK_WriteReg(MSP, 0x20001000)  returns 0x00 (0000ms, 1004ms total)
T2184 003:193 JLINK_WriteReg(PSP, 0x20001000)  returns 0x00 (0000ms, 1004ms total)
T2184 003:193 JLINK_WriteReg(CFBP, 0x00000000)  returns 0x00 (0000ms, 1004ms total)
T2184 003:193 JLINK_SetBPEx(Addr = 0x20000000, Type = 0xFFFFFFF2)  returns 0x0000000E (0000ms, 1004ms total)
T2184 003:193 JLINK_Go() -- CPU_ReadMem(4 bytes @ 0xE0001000) (0002ms, 1006ms total)
T2184 003:195 JLINK_IsHalted()  returns FALSE (0001ms, 1007ms total)
T2184 003:314 JLINK_IsHalted() -- CPU_ReadMem(2 bytes @ 0x20000000)  returns TRUE (0003ms, 1009ms total)
T2184 003:317 JLINK_ReadReg(R15 (PC))  returns 0x20000000 (0000ms, 1006ms total)
T2184 003:318 JLINK_ClrBPEx(BPHandle = 0x0000000E)  returns 0x00 (0000ms, 1007ms total)
T2184 003:318 JLINK_ReadReg(R0)  returns 0x00000000 (0000ms, 1007ms total)
T2184 003:319 JLINK_WriteMem(0x20000198, 0x0400 Bytes, ...) - Data: 21 F0 01 01 01 60 00 F0 05 FD 07 46 1C E0 41 F0 ... -- CPU_WriteMem(1024 bytes @ 0x20000198)  returns 0x400 (0012ms, 1019ms total)
T2184 003:331 JLINK_WriteReg(R0, 0x08001C00)  returns 0x00 (0000ms, 1019ms total)
T2184 003:331 JLINK_WriteReg(R1, 0x00000400)  returns 0x00 (0000ms, 1019ms total)
T2184 003:331 JLINK_WriteReg(R2, 0x20000198)  returns 0x00 (0000ms, 1019ms total)
T2184 003:331 JLINK_WriteReg(R3, 0x00000000)  returns 0x00 (0000ms, 1019ms total)
T2184 003:331 JLINK_WriteReg(R4, 0x00000000)  returns 0x00 (0000ms, 1019ms total)
T2184 003:331 JLINK_WriteReg(R5, 0x00000000)  returns 0x00 (0000ms, 1019ms total)
T2184 003:331 JLINK_WriteReg(R6, 0x00000000)  returns 0x00 (0000ms, 1019ms total)
T2184 003:331 JLINK_WriteReg(R7, 0x00000000)  returns 0x00 (0000ms, 1019ms total)
T2184 003:331 JLINK_WriteReg(R8, 0x00000000)  returns 0x00 (0000ms, 1019ms total)
T2184 003:331 JLINK_WriteReg(R9, 0x20000194)  returns 0x00 (0000ms, 1019ms total)
T2184 003:331 JLINK_WriteReg(R10, 0x00000000)  returns 0x00 (0001ms, 1020ms total)
T2184 003:332 JLINK_WriteReg(R11, 0x00000000)  returns 0x00 (0000ms, 1020ms total)
T2184 003:332 JLINK_WriteReg(R12, 0x00000000)  returns 0x00 (0000ms, 1020ms total)
T2184 003:332 JLINK_WriteReg(R13 (SP), 0x20001000)  returns 0x00 (0000ms, 1020ms total)
T2184 003:332 JLINK_WriteReg(R14, 0x20000001)  returns 0x00 (0000ms, 1020ms total)
T2184 003:332 JLINK_WriteReg(R15 (PC), 0x20000120)  returns 0x00 (0000ms, 1020ms total)
T2184 003:332 JLINK_WriteReg(XPSR, 0x01000000)  returns 0x00 (0000ms, 1020ms total)
T2184 003:332 JLINK_WriteReg(MSP, 0x20001000)  returns 0x00 (0000ms, 1020ms total)
T2184 003:332 JLINK_WriteReg(PSP, 0x20001000)  returns 0x00 (0000ms, 1020ms total)
T2184 003:332 JLINK_WriteReg(CFBP, 0x00000000)  returns 0x00 (0000ms, 1020ms total)
T2184 003:332 JLINK_SetBPEx(Addr = 0x20000000, Type = 0xFFFFFFF2)  returns 0x0000000F (0000ms, 1020ms total)
T2184 003:332 JLINK_Go() -- CPU_ReadMem(4 bytes @ 0xE0001000) (0002ms, 1022ms total)
T2184 003:334 JLINK_IsHalted()  returns FALSE (0001ms, 1023ms total)
T2184 003:455 JLINK_IsHalted() -- CPU_ReadMem(2 bytes @ 0x20000000)  returns TRUE (0003ms, 1025ms total)
T2184 003:458 JLINK_ReadReg(R15 (PC))  returns 0x20000000 (0000ms, 1022ms total)
T2184 003:458 JLINK_ClrBPEx(BPHandle = 0x0000000F)  returns 0x00 (0000ms, 1022ms total)
T2184 003:458 JLINK_ReadReg(R0)  returns 0x00000000 (0000ms, 1022ms total)
T2184 003:459 JLINK_WriteMem(0x20000198, 0x0400 Bytes, ...) - Data: 0C D0 2E B1 00 F0 06 FB A0 EB 09 00 B0 42 05 D9 ... -- CPU_WriteMem(1024 bytes @ 0x20000198)  returns 0x400 (0013ms, 1035ms total)
T2184 003:472 JLINK_WriteReg(R0, 0x08002000)  returns 0x00 (0000ms, 1035ms total)
T2184 003:472 JLINK_WriteReg(R1, 0x00000400)  returns 0x00 (0000ms, 1035ms total)
T2184 003:472 JLINK_WriteReg(R2, 0x20000198)  returns 0x00 (0000ms, 1035ms total)
T2184 003:472 JLINK_WriteReg(R3, 0x00000000)  returns 0x00 (0000ms, 1035ms total)
T2184 003:472 JLINK_WriteReg(R4, 0x00000000)  returns 0x00 (0000ms, 1035ms total)
T2184 003:472 JLINK_WriteReg(R5, 0x00000000)  returns 0x00 (0000ms, 1035ms total)
T2184 003:472 JLINK_WriteReg(R6, 0x00000000)  returns 0x00 (0000ms, 1035ms total)
T2184 003:472 JLINK_WriteReg(R7, 0x00000000)  returns 0x00 (0000ms, 1035ms total)
T2184 003:472 JLINK_WriteReg(R8, 0x00000000)  returns 0x00 (0000ms, 1035ms total)
T2184 003:472 JLINK_WriteReg(R9, 0x20000194)  returns 0x00 (0000ms, 1035ms total)
T2184 003:472 JLINK_WriteReg(R10, 0x00000000)  returns 0x00 (0000ms, 1035ms total)
T2184 003:472 JLINK_WriteReg(R11, 0x00000000)  returns 0x00 (0000ms, 1035ms total)
T2184 003:472 JLINK_WriteReg(R12, 0x00000000)  returns 0x00 (0000ms, 1035ms total)
T2184 003:472 JLINK_WriteReg(R13 (SP), 0x20001000)  returns 0x00 (0001ms, 1036ms total)
T2184 003:473 JLINK_WriteReg(R14, 0x20000001)  returns 0x00 (0000ms, 1036ms total)
T2184 003:473 JLINK_WriteReg(R15 (PC), 0x20000120)  returns 0x00 (0000ms, 1036ms total)
T2184 003:473 JLINK_WriteReg(XPSR, 0x01000000)  returns 0x00 (0000ms, 1036ms total)
T2184 003:473 JLINK_WriteReg(MSP, 0x20001000)  returns 0x00 (0000ms, 1036ms total)
T2184 003:473 JLINK_WriteReg(PSP, 0x20001000)  returns 0x00 (0000ms, 1036ms total)
T2184 003:473 JLINK_WriteReg(CFBP, 0x00000000)  returns 0x00 (0000ms, 1036ms total)
T2184 003:473 JLINK_SetBPEx(Addr = 0x20000000, Type = 0xFFFFFFF2)  returns 0x00000010 (0000ms, 1036ms total)
T2184 003:473 JLINK_Go() -- CPU_ReadMem(4 bytes @ 0xE0001000) (0002ms, 1038ms total)
T2184 003:475 JLINK_IsHalted()  returns FALSE (0001ms, 1039ms total)
T2184 003:584 JLINK_IsHalted() -- CPU_ReadMem(2 bytes @ 0x20000000)  returns TRUE (0004ms, 1042ms total)
T2184 003:588 JLINK_ReadReg(R15 (PC))  returns 0x20000000 (0000ms, 1038ms total)
T2184 003:588 JLINK_ClrBPEx(BPHandle = 0x00000010)  returns 0x00 (0000ms, 1038ms total)
T2184 003:588 JLINK_ReadReg(R0)  returns 0x00000000 (0000ms, 1038ms total)
T2184 003:589 JLINK_WriteMem(0x20000198, 0x0400 Bytes, ...) - Data: 01 60 05 49 F7 E7 00 00 78 00 00 20 70 00 00 20 ... -- CPU_WriteMem(1024 bytes @ 0x20000198)  returns 0x400 (0012ms, 1050ms total)
T2184 003:601 JLINK_WriteReg(R0, 0x08002400)  returns 0x00 (0000ms, 1050ms total)
T2184 003:601 JLINK_WriteReg(R1, 0x00000400)  returns 0x00 (0000ms, 1050ms total)
T2184 003:601 JLINK_WriteReg(R2, 0x20000198)  returns 0x00 (0001ms, 1051ms total)
